T0F1C 000:004.885   SEGGER J-Link V7.82 Log File
T0F1C 000:005.071   DLL Compiled: Oct 13 2022 13:32:51
T0F1C 000:005.076   Logging started @ 2023-08-26 07:34
T0F1C 000:005.096 - 5.098ms
T0F1C 000:005.121 JLINK_SetWarnOutHandler(...)
T0F1C 000:005.127 - 0.025ms
T0F1C 000:005.150 JLINK_OpenEx(...)
T0F1C 000:007.158   Firmware: J-Link V9 compiled May  7 2021 16:26:12
T0F1C 000:007.596   Firmware: J-Link V9 compiled May  7 2021 16:26:12
T0F1C 000:007.758   Decompressing FW timestamp took 121 us
T0F1C 000:013.848   Hardware: V9.60
T0F1C 000:013.862   S/N: 69606767
T0F1C 000:013.868   OEM: SEGGER
T0F1C 000:013.874   Feature(s): GDB, RDI, FlashBP, FlashDL, JFlash
T0F1C 000:014.820   TELNET listener socket opened on port 19021
T0F1C 000:015.013   WEBSRV WEBSRV_Init(): Starting webserver thread(s)
T0F1C 000:015.105   WEBSRV Webserver running on local port 19080
T0F1C 000:021.535 - 16.407ms returns "O.K."
T0F1C 000:021.576 JLINK_GetEmuCaps()
T0F1C 000:021.582 - 0.008ms returns 0xB9FF7BBF
T0F1C 000:021.589 JLINK_TIF_GetAvailable(...)
T0F1C 000:021.775 - 0.190ms
T0F1C 000:021.784 JLINK_SetErrorOutHandler(...)
T0F1C 000:021.788 - 0.006ms
T0F1C 000:021.801 JLINK_ExecCommand("ProjectFile = "H:\JK3561\Project\JLinkSettings.ini"", ...). 
T0F1C 000:033.800 - 12.007ms returns 0x00
T0F1C 000:037.085 JLINK_ExecCommand("Device = LPC1788", ...). 
T0F1C 000:043.425   Device "LPC1788" selected.
T0F1C 000:044.046 - 6.973ms returns 0x00
T0F1C 000:044.078 JLINK_ExecCommand("DisableConnectionTimeout", ...). 
T0F1C 000:044.086 - 0.004ms returns 0x01
T0F1C 000:044.092 JLINK_GetHardwareVersion()
T0F1C 000:044.110 - 0.020ms returns 96000
T0F1C 000:044.119 JLINK_GetDLLVersion()
T0F1C 000:044.123 - 0.006ms returns 78200
T0F1C 000:044.127 JLINK_GetOEMString(...)
T0F1C 000:044.133 JLINK_GetFirmwareString(...)
T0F1C 000:044.137 - 0.006ms
T0F1C 000:052.470 JLINK_GetDLLVersion()
T0F1C 000:052.482 - 0.013ms returns 78200
T0F1C 000:052.487 JLINK_GetCompileDateTime()
T0F1C 000:052.491 - 0.006ms
T0F1C 000:057.779 JLINK_GetFirmwareString(...)
T0F1C 000:057.792 - 0.015ms
T0F1C 000:060.507 JLINK_GetHardwareVersion()
T0F1C 000:060.516 - 0.011ms returns 96000
T0F1C 000:063.753 JLINK_GetSN()
T0F1C 000:063.763 - 0.012ms returns 69606767
T0F1C 000:066.449 JLINK_GetOEMString(...)
T0F1C 000:075.832 JLINK_TIF_Select(JLINKARM_TIF_SWD)
T0F1C 000:076.519 - 0.692ms returns 0x00
T0F1C 000:076.528 JLINK_HasError()
T0F1C 000:076.537 JLINK_SetSpeed(5000)
T0F1C 000:076.603 - 0.070ms
T0F1C 000:076.611 JLINK_GetId()
T0F1C 000:084.587   Found SW-DP with ID 0x2BA01477
T0F1C 000:091.534   DPIDR: 0x2BA01477
T0F1C 000:096.185   CoreSight SoC-400 or earlier
T0F1C 000:103.117   Scanning AP map to find all available APs
T0F1C 000:106.672   AP[1]: Stopped AP scan as end of AP map has been reached
T0F1C 000:109.306   AP[0]: AHB-AP (IDR: 0x24770011)
T0F1C 000:112.026   Iterating through AP map to find AHB-AP to use
T0F1C 000:118.697   AP[0]: Core found
T0F1C 000:121.675   AP[0]: AHB-AP ROM base: 0xE00FF000
T0F1C 000:124.931   CPUID register: 0x412FC230. Implementer code: 0x41 (ARM)
T0F1C 000:127.742   Found Cortex-M3 r2p0, Little endian.
T0F1C 000:128.135   -- Max. mem block: 0x00010C40
T0F1C 000:128.288   CPU_ReadMem(4 bytes @ 0xE000EDF0)
T0F1C 000:128.608   CPU_WriteMem(4 bytes @ 0xE000EDF0)
T0F1C 000:128.930   CPU_ReadMem(4 bytes @ 0xE0002000)
T0F1C 000:134.338   FPUnit: 6 code (BP) slots and 2 literal slots
T0F1C 000:134.352   CPU_ReadMem(4 bytes @ 0xE000EDFC)
T0F1C 000:134.674   CPU_WriteMem(4 bytes @ 0xE000EDFC)
T0F1C 000:134.989   CPU_ReadMem(4 bytes @ 0xE0001000)
T0F1C 000:135.284   CPU_WriteMem(4 bytes @ 0xE0001000)
T0F1C 000:135.567   CPU_ReadMem(4 bytes @ 0xE000ED88)
T0F1C 000:135.862   CPU_WriteMem(4 bytes @ 0xE000ED88)
T0F1C 000:136.104   CPU_ReadMem(4 bytes @ 0xE000ED88)
T0F1C 000:136.352   CPU_WriteMem(4 bytes @ 0xE000ED88)
T0F1C 000:139.894   CoreSight components:
T0F1C 000:142.561   ROMTbl[0] @ E00FF000
T0F1C 000:142.575   CPU_ReadMem(64 bytes @ 0xE00FF000)
T0F1C 000:143.252   CPU_ReadMem(32 bytes @ 0xE000EFE0)
T0F1C 000:146.892   [0][0]: E000E000 CID B105E00D PID 002BB000 SCS
T0F1C 000:146.905   CPU_ReadMem(32 bytes @ 0xE0001FE0)
T0F1C 000:150.012   [0][1]: E0001000 CID B105E00D PID 002BB002 DWT
T0F1C 000:150.025   CPU_ReadMem(32 bytes @ 0xE0002FE0)
T0F1C 000:154.912   [0][2]: E0002000 CID B105E00D PID 002BB003 FPB
T0F1C 000:154.927   CPU_ReadMem(32 bytes @ 0xE0000FE0)
T0F1C 000:159.019   [0][3]: E0000000 CID B105E00D PID 002BB001 ITM
T0F1C 000:159.035   CPU_ReadMem(32 bytes @ 0xE0040FE0)
T0F1C 000:164.952   [0][4]: E0040000 CID B105900D PID 002BB923 TPIU-Lite
T0F1C 000:164.967   CPU_ReadMem(32 bytes @ 0xE0041FE0)
T0F1C 000:168.439   [0][5]: E0041000 CID B105900D PID 002BB924 ETM-M3
T0F1C 000:168.786 - 92.181ms returns 0x2BA01477
T0F1C 000:168.800 JLINK_GetDLLVersion()
T0F1C 000:168.805 - 0.006ms returns 78200
T0F1C 000:168.810 JLINK_CORE_GetFound()
T0F1C 000:168.815 - 0.006ms returns 0x30000FF
T0F1C 000:168.820 JLINK_GetDebugInfo(0x100 = JLINKARM_ROM_TABLE_ADDR_INDEX)
T0F1C 000:168.827   Value=0xE00FF000
T0F1C 000:168.833 - 0.015ms returns 0
T0F1C 000:171.586 JLINK_GetDebugInfo(0x100 = JLINKARM_ROM_TABLE_ADDR_INDEX)
T0F1C 000:171.596   Value=0xE00FF000
T0F1C 000:171.603 - 0.018ms returns 0
T0F1C 000:171.608 JLINK_GetDebugInfo(0x101 = JLINKARM_DEBUG_INFO_ETM_ADDR_INDEX)
T0F1C 000:171.613   Value=0xE0041000
T0F1C 000:171.618 - 0.012ms returns 0
T0F1C 000:171.625 JLINK_ReadMemEx(0xE0041FD0, 0x20 Bytes, Flags = 0x02000004)
T0F1C 000:171.640   CPU_ReadMem(32 bytes @ 0xE0041FD0)
T0F1C 000:172.132   Data:  04 00 00 00 00 00 00 00 00 00 00 00 00 00 00 00 ...
T0F1C 000:172.142 - 0.518ms returns 32 (0x20)
T0F1C 000:172.149 JLINK_GetDebugInfo(0x102 = JLINKARM_DEBUG_INFO_MTB_ADDR_INDEX)
T0F1C 000:172.153   Value=0x00000000
T0F1C 000:172.159 - 0.012ms returns 0
T0F1C 000:172.164 JLINK_GetDebugInfo(0x103 = JLINKARM_DEBUG_INFO_TPIU_ADDR_INDEX)
T0F1C 000:172.169   Value=0xE0040000
T0F1C 000:172.174 - 0.012ms returns 0
T0F1C 000:172.179 JLINK_GetDebugInfo(0x104 = JLINKARM_DEBUG_INFO_ITM_ADDR_INDEX)
T0F1C 000:172.183   Value=0xE0000000
T0F1C 000:172.189 - 0.012ms returns 0
T0F1C 000:172.194 JLINK_GetDebugInfo(0x105 = JLINKARM_DEBUG_INFO_DWT_ADDR_INDEX)
T0F1C 000:172.198   Value=0xE0001000
T0F1C 000:172.204 - 0.011ms returns 0
T0F1C 000:172.208 JLINK_GetDebugInfo(0x106 = JLINKARM_DEBUG_INFO_FPB_ADDR_INDEX)
T0F1C 000:172.212   Value=0xE0002000
T0F1C 000:172.218 - 0.011ms returns 0
T0F1C 000:172.223 JLINK_GetDebugInfo(0x107 = JLINKARM_DEBUG_INFO_NVIC_ADDR_INDEX)
T0F1C 000:172.227   Value=0xE000E000
T0F1C 000:172.233 - 0.012ms returns 0
T0F1C 000:172.237 JLINK_GetDebugInfo(0x10C = JLINKARM_DEBUG_INFO_DBG_ADDR_INDEX)
T0F1C 000:172.242   Value=0xE000EDF0
T0F1C 000:172.247 - 0.012ms returns 0
T0F1C 000:172.252 JLINK_GetDebugInfo(0x01 = Unknown)
T0F1C 000:172.257   Value=0x00000000
T0F1C 000:172.263 - 0.013ms returns 0
T0F1C 000:172.268 JLINK_ReadMemU32(0xE000ED00, 0x1 Items)
T0F1C 000:172.275   CPU_ReadMem(4 bytes @ 0xE000ED00)
T0F1C 000:172.587   Data:  30 C2 2F 41
T0F1C 000:172.598   Debug reg: CPUID
T0F1C 000:172.604 - 0.337ms returns 1 (0x1)
T0F1C 000:172.611 JLINK_GetDebugInfo(0x10F = JLINKARM_DEBUG_INFO_HAS_CORTEX_M_SECURITY_EXT_INDEX)
T0F1C 000:172.615   Value=0x00000000
T0F1C 000:172.621 - 0.012ms returns 0
T0F1C 000:172.626 JLINK_HasError()
T0F1C 000:172.631 JLINK_SetResetType(JLINKARM_CM3_RESET_TYPE_NORMAL)
T0F1C 000:172.636 - 0.006ms returns JLINKARM_CM3_RESET_TYPE_HALT_AFTER_BTL
T0F1C 000:172.641 JLINK_Reset()
T0F1C 000:172.652   CPU is running
T0F1C 000:172.659   CPU_WriteMem(4 bytes @ 0xE000EDF0)
T0F1C 000:173.061   CPU is running
T0F1C 000:173.072   CPU_WriteMem(4 bytes @ 0xE000EDFC)
T0F1C 000:176.519   Reset: Halt core after reset via DEMCR.VC_CORERESET.
T0F1C 000:179.700   Reset: Reset device via AIRCR.SYSRESETREQ.
T0F1C 000:179.713   CPU is running
T0F1C 000:179.721   CPU_WriteMem(4 bytes @ 0xE000ED0C)
T0F1C 000:232.186   CPU_ReadMem(4 bytes @ 0xE000EDF0)
T0F1C 000:232.757   CPU_ReadMem(4 bytes @ 0xE000EDF0)
T0F1C 000:233.306   CPU is running
T0F1C 000:233.371   CPU_WriteMem(4 bytes @ 0xE000EDF0)
T0F1C 000:233.977   CPU is running
T0F1C 000:234.038   CPU_WriteMem(4 bytes @ 0xE000EDFC)
T0F1C 000:240.536   CPU_ReadMem(4 bytes @ 0xE000EDF0)
T0F1C 000:243.404   CPU_WriteMem(4 bytes @ 0xE000EDFC)
T0F1C 000:243.976   CPU_WriteMem(4 bytes @ 0xE0001028)
T0F1C 000:244.458   CPU_WriteMem(4 bytes @ 0xE0001028)
T0F1C 000:244.973   CPU_WriteMem(4 bytes @ 0xE000EDFC)
T0F1C 000:245.503   CPU_WriteMem(4 bytes @ 0xE0001028)
T0F1C 000:246.000   CPU_WriteMem(4 bytes @ 0xE0001028)
T0F1C 000:246.490   CPU_WriteMem(4 bytes @ 0xE000EDFC)
T0F1C 000:246.993   CPU_WriteMem(4 bytes @ 0xE0001028)
T0F1C 000:247.490   CPU_WriteMem(4 bytes @ 0xE0001028)
T0F1C 000:247.993   CPU_WriteMem(4 bytes @ 0xE000EDFC)
T0F1C 000:248.496   CPU_WriteMem(4 bytes @ 0xE0001028)
T0F1C 000:248.971   CPU_WriteMem(4 bytes @ 0xE0001028)
T0F1C 000:249.505   CPU_WriteMem(4 bytes @ 0xE000EDFC)
T0F1C 000:249.964   CPU_WriteMem(4 bytes @ 0xE0001050)
T0F1C 000:250.418   CPU_WriteMem(4 bytes @ 0xE0001054)
T0F1C 000:250.911   CPU_WriteMem(4 bytes @ 0xE0001058)
T0F1C 000:251.762   CPU_ReadMem(4 bytes @ 0xE0001000)
T0F1C 000:355.470   CPU_WriteMem(4 bytes @ 0xE000EDFC)
T0F1C 000:355.768   CPU_WriteMem(4 bytes @ 0xE0001058)
T0F1C 000:356.047   CPU_ReadMem(4 bytes @ 0x00000004)
T0F1C 000:356.328   CPU_ReadMem(4 bytes @ 0xE0002000)
T0F1C 000:356.641   CPU_ReadMem(4 bytes @ 0xE0002008)
T0F1C 000:356.922   CPU_ReadMem(4 bytes @ 0xE000200C)
T0F1C 000:357.177   CPU_ReadMem(4 bytes @ 0xE0002010)
T0F1C 000:357.475   CPU_ReadMem(4 bytes @ 0xE0002014)
T0F1C 000:357.720   CPU_ReadMem(4 bytes @ 0xE0002018)
T0F1C 000:357.969   CPU_ReadMem(4 bytes @ 0xE000201C)
T0F1C 000:358.217   CPU_WriteMem(4 bytes @ 0xE0002000)
T0F1C 000:358.458   CPU_WriteMem(4 bytes @ 0xE0002008)
T0F1C 000:358.721   CPU_WriteMem(4 bytes @ 0xE000200C)
T0F1C 000:358.969   CPU_WriteMem(4 bytes @ 0xE0002010)
T0F1C 000:359.220   CPU_WriteMem(4 bytes @ 0xE0002014)
T0F1C 000:359.468   CPU_WriteMem(4 bytes @ 0xE0002018)
T0F1C 000:359.713   CPU_WriteMem(4 bytes @ 0xE000201C)
T0F1C 000:359.964   CPU_ReadMem(4 bytes @ 0xE0001000)
T0F1C 000:462.797   CPU_ReadMem(4 bytes @ 0x400FC040)
T0F1C 000:463.132   CPU_WriteMem(4 bytes @ 0xE0002000)
T0F1C 000:463.431   CPU_WriteMem(4 bytes @ 0xE0002008)
T0F1C 000:463.741   CPU_WriteMem(4 bytes @ 0xE000200C)
T0F1C 000:464.008   CPU_WriteMem(4 bytes @ 0xE0002010)
T0F1C 000:464.282   CPU_WriteMem(4 bytes @ 0xE0002014)
T0F1C 000:464.585   CPU_WriteMem(4 bytes @ 0xE0002018)
T0F1C 000:464.865   CPU_WriteMem(4 bytes @ 0xE000201C)
T0F1C 000:465.101   CPU_WriteMem(4 bytes @ 0xE0002000)
T0F1C 000:465.334   CPU_ReadMem(4 bytes @ 0xE000EDFC)
T0F1C 000:465.543   CPU_ReadMem(4 bytes @ 0xE0001000)
T0F1C 000:465.744 - 293.123ms
T0F1C 000:465.772 JLINK_Halt()
T0F1C 000:465.777 - 0.006ms returns 0x00
T0F1C 000:465.812 JLINK_ReadMemU32(0xE000EDF0, 0x1 Items)
T0F1C 000:465.820   CPU_ReadMem(4 bytes @ 0xE000EDF0)
T0F1C 000:466.035   Data:  03 00 03 00
T0F1C 000:466.043   Debug reg: DHCSR
T0F1C 000:466.048 - 0.238ms returns 1 (0x1)
T0F1C 000:466.056 JLINK_WriteU32_64(0xE000EDF0, 0xA05F0003)
T0F1C 000:466.061   Debug reg: DHCSR
T0F1C 000:466.311   CPU_WriteMem(4 bytes @ 0xE000EDF0)
T0F1C 000:466.532 - 0.480ms returns 0 (0x00000000)
T0F1C 000:466.539 JLINK_WriteU32_64(0xE000EDFC, 0x01000000)
T0F1C 000:466.544   Debug reg: DEMCR
T0F1C 000:466.552   CPU_WriteMem(4 bytes @ 0xE000EDFC)
T0F1C 000:466.775 - 0.239ms returns 0 (0x00000000)
T0F1C 000:481.110 JLINK_GetHWStatus(...)
T0F1C 000:481.348 - 0.245ms returns 0
T0F1C 000:489.560 JLINK_GetNumBPUnits(Type = 0xFFFFFF00)
T0F1C 000:489.574 - 0.016ms returns 0x06
T0F1C 000:489.580 JLINK_GetNumBPUnits(Type = 0xF0)
T0F1C 000:489.584 - 0.006ms returns 0x2000
T0F1C 000:489.589 JLINK_GetNumWPUnits()
T0F1C 000:489.593 - 0.006ms returns 4
T0F1C 000:500.589 JLINK_GetSpeed()
T0F1C 000:500.603 - 0.016ms returns 4000
T0F1C 000:509.867 JLINK_ReadMemU32(0xE000E004, 0x1 Items)
T0F1C 000:509.892   CPU_ReadMem(4 bytes @ 0xE000E004)
T0F1C 000:510.198   Data:  01 00 00 00
T0F1C 000:510.213 - 0.348ms returns 1 (0x1)
T0F1C 000:510.220 JLINK_ReadMemU32(0xE000E004, 0x1 Items)
T0F1C 000:510.227   CPU_ReadMem(4 bytes @ 0xE000E004)
T0F1C 000:510.520   Data:  01 00 00 00
T0F1C 000:510.530 - 0.313ms returns 1 (0x1)
T0F1C 000:510.537 JLINK_WriteMemEx(0xE0001000, 0x0000001C Bytes, Flags = 0x02000004)
T0F1C 000:510.542   Data:  01 00 00 00 00 00 00 00 00 00 00 00 00 00 00 00 ...
T0F1C 000:510.553   CPU_WriteMem(28 bytes @ 0xE0001000)
T0F1C 000:510.965 - 0.433ms returns 0x1C
T0F1C 000:510.978 JLINK_Halt()
T0F1C 000:510.983 - 0.006ms returns 0x00
T0F1C 000:510.988 JLINK_IsHalted()
T0F1C 000:510.994   CPU_ReadMem(4 bytes @ 0x400FC040)
T0F1C 000:511.290 - 0.308ms returns TRUE
T0F1C 000:513.981 JLINK_WriteMem(0x10000000, 0x1E4 Bytes, ...)
T0F1C 000:513.989   Data:  00 BE 0A E0 0D 78 2D 06 68 40 08 24 40 00 00 D3 ...
T0F1C 000:514.220   CPU_WriteMem(484 bytes @ 0x10000000)
T0F1C 000:516.234 - 2.258ms returns 0x1E4
T0F1C 000:516.259 JLINK_HasError()
T0F1C 000:516.266 JLINK_WriteReg(R0, 0x00000000)
T0F1C 000:516.274 - 0.011ms returns 0
T0F1C 000:516.280 JLINK_WriteReg(R1, 0x00B71B00)
T0F1C 000:516.285 - 0.006ms returns 0
T0F1C 000:516.289 JLINK_WriteReg(R2, 0x00000001)
T0F1C 000:516.294 - 0.006ms returns 0
T0F1C 000:516.299 JLINK_WriteReg(R3, 0x00000000)
T0F1C 000:516.303 - 0.006ms returns 0
T0F1C 000:516.308 JLINK_WriteReg(R4, 0x00000000)
T0F1C 000:516.312 - 0.006ms returns 0
T0F1C 000:516.317 JLINK_WriteReg(R5, 0x00000000)
T0F1C 000:516.321 - 0.006ms returns 0
T0F1C 000:516.326 JLINK_WriteReg(R6, 0x00000000)
T0F1C 000:516.330 - 0.006ms returns 0
T0F1C 000:516.335 JLINK_WriteReg(R7, 0x00000000)
T0F1C 000:516.339 - 0.006ms returns 0
T0F1C 000:516.344 JLINK_WriteReg(R8, 0x00000000)
T0F1C 000:516.351 - 0.008ms returns 0
T0F1C 000:516.356 JLINK_WriteReg(R9, 0x100001DC)
T0F1C 000:516.360 - 0.006ms returns 0
T0F1C 000:516.365 JLINK_WriteReg(R10, 0x00000000)
T0F1C 000:516.369 - 0.006ms returns 0
T0F1C 000:516.374 JLINK_WriteReg(R11, 0x00000000)
T0F1C 000:516.378 - 0.006ms returns 0
T0F1C 000:516.383 JLINK_WriteReg(R12, 0x00000000)
T0F1C 000:516.387 - 0.006ms returns 0
T0F1C 000:516.392 JLINK_WriteReg(R13 (SP), 0x10000800)
T0F1C 000:516.397 - 0.006ms returns 0
T0F1C 000:516.402 JLINK_WriteReg(R14, 0x10000001)
T0F1C 000:516.406 - 0.006ms returns 0
T0F1C 000:516.411 JLINK_WriteReg(R15 (PC), 0x10000044)
T0F1C 000:516.416 - 0.007ms returns 0
T0F1C 000:516.421 JLINK_WriteReg(XPSR, 0x01000000)
T0F1C 000:516.426 - 0.006ms returns 0
T0F1C 000:516.430 JLINK_WriteReg(MSP, 0x10000800)
T0F1C 000:516.435 - 0.006ms returns 0
T0F1C 000:516.440 JLINK_WriteReg(PSP, 0x10000800)
T0F1C 000:516.444 - 0.006ms returns 0
T0F1C 000:516.449 JLINK_WriteReg(CFBP, 0x00000000)
T0F1C 000:516.453 - 0.006ms returns 0
T0F1C 000:516.458 JLINK_SetBPEx(Addr = 0x10000000, Type = 0xFFFFFFF2)
T0F1C 000:516.463 - 0.007ms returns 0x00000001
T0F1C 000:516.468 JLINK_Go()
T0F1C 000:516.475   CPU_WriteMem(4 bytes @ 0xE0002000)
T0F1C 000:516.821   CPU_ReadMem(4 bytes @ 0xE0001000)
T0F1C 000:517.136   CPU_WriteMem(4 bytes @ 0xE0002008)
T0F1C 000:517.147   CPU_WriteMem(4 bytes @ 0xE000200C)
T0F1C 000:517.153   CPU_WriteMem(4 bytes @ 0xE0002010)
T0F1C 000:517.159   CPU_WriteMem(4 bytes @ 0xE0002014)
T0F1C 000:517.165   CPU_WriteMem(4 bytes @ 0xE0002018)
T0F1C 000:517.171   CPU_WriteMem(4 bytes @ 0xE000201C)
T0F1C 000:518.314   CPU_WriteMem(4 bytes @ 0xE0001004)
T0F1C 000:520.728 - 4.266ms
T0F1C 000:520.741 JLINK_IsHalted()
T0F1C 000:522.772 - 2.038ms returns TRUE
T0F1C 000:522.785 JLINK_ReadReg(R15 (PC))
T0F1C 000:522.791 - 0.007ms returns 0x10000000
T0F1C 000:522.796 JLINK_ClrBPEx(BPHandle = 0x00000001)
T0F1C 000:522.801 - 0.006ms returns 0x00
T0F1C 000:522.806 JLINK_ReadReg(R0)
T0F1C 000:522.810 - 0.006ms returns 0x00000000
T0F1C 000:522.990 JLINK_HasError()
T0F1C 000:522.998 JLINK_WriteReg(R0, 0x00018000)
T0F1C 000:523.004 - 0.007ms returns 0
T0F1C 000:523.009 JLINK_WriteReg(R1, 0x00008000)
T0F1C 000:523.013 - 0.006ms returns 0
T0F1C 000:523.018 JLINK_WriteReg(R2, 0x000000FF)
T0F1C 000:523.057 - 0.042ms returns 0
T0F1C 000:523.064 JLINK_WriteReg(R3, 0x00000000)
T0F1C 000:523.068 - 0.006ms returns 0
T0F1C 000:523.073 JLINK_WriteReg(R4, 0x00000000)
T0F1C 000:523.078 - 0.006ms returns 0
T0F1C 000:523.082 JLINK_WriteReg(R5, 0x00000000)
T0F1C 000:523.087 - 0.006ms returns 0
T0F1C 000:523.092 JLINK_WriteReg(R6, 0x00000000)
T0F1C 000:523.096 - 0.006ms returns 0
T0F1C 000:523.101 JLINK_WriteReg(R7, 0x00000000)
T0F1C 000:523.105 - 0.006ms returns 0
T0F1C 000:523.110 JLINK_WriteReg(R8, 0x00000000)
T0F1C 000:523.114 - 0.006ms returns 0
T0F1C 000:523.119 JLINK_WriteReg(R9, 0x100001DC)
T0F1C 000:523.123 - 0.006ms returns 0
T0F1C 000:523.128 JLINK_WriteReg(R10, 0x00000000)
T0F1C 000:523.132 - 0.006ms returns 0
T0F1C 000:523.137 JLINK_WriteReg(R11, 0x00000000)
T0F1C 000:523.141 - 0.006ms returns 0
T0F1C 000:523.146 JLINK_WriteReg(R12, 0x00000000)
T0F1C 000:523.151 - 0.006ms returns 0
T0F1C 000:523.155 JLINK_WriteReg(R13 (SP), 0x10000800)
T0F1C 000:523.160 - 0.006ms returns 0
T0F1C 000:523.165 JLINK_WriteReg(R14, 0x10000001)
T0F1C 000:523.169 - 0.006ms returns 0
T0F1C 000:523.174 JLINK_WriteReg(R15 (PC), 0x10000020)
T0F1C 000:523.178 - 0.006ms returns 0
T0F1C 000:523.183 JLINK_WriteReg(XPSR, 0x01000000)
T0F1C 000:523.188 - 0.006ms returns 0
T0F1C 000:523.192 JLINK_WriteReg(MSP, 0x10000800)
T0F1C 000:523.197 - 0.006ms returns 0
T0F1C 000:523.202 JLINK_WriteReg(PSP, 0x10000800)
T0F1C 000:523.206 - 0.006ms returns 0
T0F1C 000:523.211 JLINK_WriteReg(CFBP, 0x00000000)
T0F1C 000:523.215 - 0.006ms returns 0
T0F1C 000:523.220 JLINK_SetBPEx(Addr = 0x10000000, Type = 0xFFFFFFF2)
T0F1C 000:523.225 - 0.007ms returns 0x00000002
T0F1C 000:523.230 JLINK_Go()
T0F1C 000:523.237   CPU_WriteMem(4 bytes @ 0xE0002000)
T0F1C 000:523.549   CPU_ReadMem(4 bytes @ 0xE0001000)
T0F1C 000:525.895 - 2.671ms
T0F1C 000:525.905 JLINK_IsHalted()
T0F1C 000:526.207 - 0.308ms returns FALSE
T0F1C 000:526.218 JLINK_HasError()
T0F1C 000:556.112 JLINK_IsHalted()
T0F1C 000:558.133 - 2.027ms returns TRUE
T0F1C 000:558.144 JLINK_ReadReg(R15 (PC))
T0F1C 000:558.150 - 0.008ms returns 0x10000000
T0F1C 000:558.155 JLINK_ClrBPEx(BPHandle = 0x00000002)
T0F1C 000:558.160 - 0.007ms returns 0x00
T0F1C 000:558.165 JLINK_ReadReg(R0)
T0F1C 000:558.169 - 0.006ms returns 0x00000000
T0F1C 000:558.497 JLINK_HasError()
T0F1C 000:558.506 JLINK_WriteReg(R0, 0x00020000)
T0F1C 000:558.512 - 0.007ms returns 0
T0F1C 000:558.517 JLINK_WriteReg(R1, 0x00008000)
T0F1C 000:558.521 - 0.006ms returns 0
T0F1C 000:558.526 JLINK_WriteReg(R2, 0x000000FF)
T0F1C 000:558.531 - 0.006ms returns 0
T0F1C 000:558.535 JLINK_WriteReg(R3, 0x00000000)
T0F1C 000:558.539 - 0.006ms returns 0
T0F1C 000:558.544 JLINK_WriteReg(R4, 0x00000000)
T0F1C 000:558.549 - 0.006ms returns 0
T0F1C 000:558.553 JLINK_WriteReg(R5, 0x00000000)
T0F1C 000:558.558 - 0.006ms returns 0
T0F1C 000:558.562 JLINK_WriteReg(R6, 0x00000000)
T0F1C 000:558.567 - 0.006ms returns 0
T0F1C 000:558.571 JLINK_WriteReg(R7, 0x00000000)
T0F1C 000:558.576 - 0.006ms returns 0
T0F1C 000:558.581 JLINK_WriteReg(R8, 0x00000000)
T0F1C 000:558.585 - 0.006ms returns 0
T0F1C 000:558.590 JLINK_WriteReg(R9, 0x100001DC)
T0F1C 000:558.594 - 0.006ms returns 0
T0F1C 000:558.599 JLINK_WriteReg(R10, 0x00000000)
T0F1C 000:558.603 - 0.006ms returns 0
T0F1C 000:558.608 JLINK_WriteReg(R11, 0x00000000)
T0F1C 000:558.612 - 0.006ms returns 0
T0F1C 000:558.617 JLINK_WriteReg(R12, 0x00000000)
T0F1C 000:558.621 - 0.006ms returns 0
T0F1C 000:558.626 JLINK_WriteReg(R13 (SP), 0x10000800)
T0F1C 000:558.631 - 0.007ms returns 0
T0F1C 000:558.636 JLINK_WriteReg(R14, 0x10000001)
T0F1C 000:558.640 - 0.006ms returns 0
T0F1C 000:558.645 JLINK_WriteReg(R15 (PC), 0x10000020)
T0F1C 000:558.649 - 0.006ms returns 0
T0F1C 000:558.654 JLINK_WriteReg(XPSR, 0x01000000)
T0F1C 000:558.658 - 0.006ms returns 0
T0F1C 000:558.663 JLINK_WriteReg(MSP, 0x10000800)
T0F1C 000:558.667 - 0.006ms returns 0
T0F1C 000:558.672 JLINK_WriteReg(PSP, 0x10000800)
T0F1C 000:558.677 - 0.006ms returns 0
T0F1C 000:558.681 JLINK_WriteReg(CFBP, 0x00000000)
T0F1C 000:558.693 - 0.013ms returns 0
T0F1C 000:558.698 JLINK_SetBPEx(Addr = 0x10000000, Type = 0xFFFFFFF2)
T0F1C 000:558.706 - 0.010ms returns 0x00000003
T0F1C 000:558.711 JLINK_Go()
T0F1C 000:558.725   CPU_WriteMem(4 bytes @ 0xE0002000)
T0F1C 000:559.025   CPU_ReadMem(4 bytes @ 0xE0001000)
T0F1C 000:561.254 - 2.549ms
T0F1C 000:561.265 JLINK_IsHalted()
T0F1C 000:561.546 - 0.287ms returns FALSE
T0F1C 000:561.556 JLINK_HasError()
T0F1C 000:563.261 JLINK_IsHalted()
T0F1C 000:563.544 - 0.288ms returns FALSE
T0F1C 000:563.554 JLINK_HasError()
T0F1C 000:564.715 JLINK_IsHalted()
T0F1C 000:565.098 - 0.389ms returns FALSE
T0F1C 000:565.109 JLINK_HasError()
T0F1C 000:566.687 JLINK_IsHalted()
T0F1C 000:567.066 - 0.385ms returns FALSE
T0F1C 000:567.077 JLINK_HasError()
T0F1C 000:568.691 JLINK_IsHalted()
T0F1C 000:569.054 - 0.368ms returns FALSE
T0F1C 000:569.064 JLINK_HasError()
T0F1C 000:570.566 JLINK_IsHalted()
T0F1C 000:570.896 - 0.336ms returns FALSE
T0F1C 000:570.907 JLINK_HasError()
T0F1C 000:572.584 JLINK_IsHalted()
T0F1C 000:572.892 - 0.330ms returns FALSE
T0F1C 000:572.920 JLINK_HasError()
T0F1C 000:574.516 JLINK_IsHalted()
T0F1C 000:574.756 - 0.244ms returns FALSE
T0F1C 000:574.764 JLINK_HasError()
T0F1C 000:576.648 JLINK_IsHalted()
T0F1C 000:576.921 - 0.279ms returns FALSE
T0F1C 000:576.932 JLINK_HasError()
T0F1C 000:578.600 JLINK_IsHalted()
T0F1C 000:578.882 - 0.288ms returns FALSE
T0F1C 000:578.893 JLINK_HasError()
T0F1C 000:580.652 JLINK_IsHalted()
T0F1C 000:580.930 - 0.283ms returns FALSE
T0F1C 000:580.940 JLINK_HasError()
T0F1C 000:582.690 JLINK_IsHalted()
T0F1C 000:582.965 - 0.281ms returns FALSE
T0F1C 000:582.976 JLINK_HasError()
T0F1C 000:584.557 JLINK_IsHalted()
T0F1C 000:584.914 - 0.378ms returns FALSE
T0F1C 000:584.954 JLINK_HasError()
T0F1C 000:586.550 JLINK_IsHalted()
T0F1C 000:588.490 - 1.946ms returns TRUE
T0F1C 000:588.501 JLINK_ReadReg(R15 (PC))
T0F1C 000:588.507 - 0.008ms returns 0x10000000
T0F1C 000:588.513 JLINK_ClrBPEx(BPHandle = 0x00000003)
T0F1C 000:588.519 - 0.021ms returns 0x00
T0F1C 000:588.537 JLINK_ReadReg(R0)
T0F1C 000:588.542 - 0.036ms returns 0x00000000
T0F1C 000:588.884 JLINK_HasError()
T0F1C 000:588.892 JLINK_WriteReg(R0, 0x00028000)
T0F1C 000:588.898 - 0.008ms returns 0
T0F1C 000:588.903 JLINK_WriteReg(R1, 0x00008000)
T0F1C 000:588.908 - 0.006ms returns 0
T0F1C 000:588.912 JLINK_WriteReg(R2, 0x000000FF)
T0F1C 000:588.917 - 0.006ms returns 0
T0F1C 000:588.922 JLINK_WriteReg(R3, 0x00000000)
T0F1C 000:588.926 - 0.006ms returns 0
T0F1C 000:588.931 JLINK_WriteReg(R4, 0x00000000)
T0F1C 000:588.935 - 0.006ms returns 0
T0F1C 000:588.940 JLINK_WriteReg(R5, 0x00000000)
T0F1C 000:588.944 - 0.006ms returns 0
T0F1C 000:588.949 JLINK_WriteReg(R6, 0x00000000)
T0F1C 000:588.954 - 0.006ms returns 0
T0F1C 000:588.958 JLINK_WriteReg(R7, 0x00000000)
T0F1C 000:588.963 - 0.006ms returns 0
T0F1C 000:588.967 JLINK_WriteReg(R8, 0x00000000)
T0F1C 000:588.972 - 0.006ms returns 0
T0F1C 000:588.976 JLINK_WriteReg(R9, 0x100001DC)
T0F1C 000:588.981 - 0.006ms returns 0
T0F1C 000:588.986 JLINK_WriteReg(R10, 0x00000000)
T0F1C 000:588.990 - 0.006ms returns 0
T0F1C 000:588.995 JLINK_WriteReg(R11, 0x00000000)
T0F1C 000:588.999 - 0.006ms returns 0
T0F1C 000:589.004 JLINK_WriteReg(R12, 0x00000000)
T0F1C 000:589.008 - 0.006ms returns 0
T0F1C 000:589.013 JLINK_WriteReg(R13 (SP), 0x10000800)
T0F1C 000:589.018 - 0.006ms returns 0
T0F1C 000:589.023 JLINK_WriteReg(R14, 0x10000001)
T0F1C 000:589.027 - 0.006ms returns 0
T0F1C 000:589.032 JLINK_WriteReg(R15 (PC), 0x10000020)
T0F1C 000:589.036 - 0.006ms returns 0
T0F1C 000:589.041 JLINK_WriteReg(XPSR, 0x01000000)
T0F1C 000:589.045 - 0.006ms returns 0
T0F1C 000:589.050 JLINK_WriteReg(MSP, 0x10000800)
T0F1C 000:589.055 - 0.006ms returns 0
T0F1C 000:589.059 JLINK_WriteReg(PSP, 0x10000800)
T0F1C 000:589.064 - 0.006ms returns 0
T0F1C 000:589.069 JLINK_WriteReg(CFBP, 0x00000000)
T0F1C 000:589.073 - 0.006ms returns 0
T0F1C 000:589.078 JLINK_SetBPEx(Addr = 0x10000000, Type = 0xFFFFFFF2)
T0F1C 000:589.086 - 0.013ms returns 0x00000004
T0F1C 000:589.094 JLINK_Go()
T0F1C 000:589.102   CPU_WriteMem(4 bytes @ 0xE0002000)
T0F1C 000:589.339   CPU_ReadMem(4 bytes @ 0xE0001000)
T0F1C 000:591.652 - 2.564ms
T0F1C 000:591.662 JLINK_IsHalted()
T0F1C 000:592.091 - 0.434ms returns FALSE
T0F1C 000:592.101 JLINK_HasError()
T0F1C 000:593.732 JLINK_IsHalted()
T0F1C 000:594.094 - 0.368ms returns FALSE
T0F1C 000:594.105 JLINK_HasError()
T0F1C 000:595.913 JLINK_IsHalted()
T0F1C 000:596.290 - 0.383ms returns FALSE
T0F1C 000:596.301 JLINK_HasError()
T0F1C 000:597.924 JLINK_IsHalted()
T0F1C 000:598.243 - 0.325ms returns FALSE
T0F1C 000:598.254 JLINK_HasError()
T0F1C 000:599.804 JLINK_IsHalted()
T0F1C 000:600.077 - 0.278ms returns FALSE
T0F1C 000:600.102 JLINK_HasError()
T0F1C 000:601.916 JLINK_IsHalted()
T0F1C 000:602.175 - 0.280ms returns FALSE
T0F1C 000:602.201 JLINK_HasError()
T0F1C 000:603.895 JLINK_IsHalted()
T0F1C 000:604.153 - 0.264ms returns FALSE
T0F1C 000:604.164 JLINK_HasError()
T0F1C 000:605.931 JLINK_IsHalted()
T0F1C 000:606.180 - 0.255ms returns FALSE
T0F1C 000:606.190 JLINK_HasError()
T0F1C 000:607.922 JLINK_IsHalted()
T0F1C 000:608.192 - 0.276ms returns FALSE
T0F1C 000:608.202 JLINK_HasError()
T0F1C 000:609.919 JLINK_IsHalted()
T0F1C 000:610.185 - 0.272ms returns FALSE
T0F1C 000:610.196 JLINK_HasError()
T0F1C 000:611.959 JLINK_IsHalted()
T0F1C 000:612.242 - 0.289ms returns FALSE
T0F1C 000:612.253 JLINK_HasError()
T0F1C 000:613.906 JLINK_IsHalted()
T0F1C 000:614.211 - 0.310ms returns FALSE
T0F1C 000:614.221 JLINK_HasError()
T0F1C 000:615.905 JLINK_IsHalted()
T0F1C 000:616.159 - 0.260ms returns FALSE
T0F1C 000:616.169 JLINK_HasError()
T0F1C 000:617.799 JLINK_IsHalted()
T0F1C 000:619.843 - 2.050ms returns TRUE
T0F1C 000:619.854 JLINK_ReadReg(R15 (PC))
T0F1C 000:619.860 - 0.008ms returns 0x10000000
T0F1C 000:619.865 JLINK_ClrBPEx(BPHandle = 0x00000004)
T0F1C 000:619.870 - 0.007ms returns 0x00
T0F1C 000:619.875 JLINK_ReadReg(R0)
T0F1C 000:619.879 - 0.006ms returns 0x00000000
T0F1C 000:620.158 JLINK_HasError()
T0F1C 000:620.166 JLINK_WriteReg(R0, 0x00030000)
T0F1C 000:620.172 - 0.007ms returns 0
T0F1C 000:620.177 JLINK_WriteReg(R1, 0x00008000)
T0F1C 000:620.181 - 0.006ms returns 0
T0F1C 000:620.186 JLINK_WriteReg(R2, 0x000000FF)
T0F1C 000:620.191 - 0.006ms returns 0
T0F1C 000:620.195 JLINK_WriteReg(R3, 0x00000000)
T0F1C 000:620.200 - 0.006ms returns 0
T0F1C 000:620.204 JLINK_WriteReg(R4, 0x00000000)
T0F1C 000:620.209 - 0.006ms returns 0
T0F1C 000:620.213 JLINK_WriteReg(R5, 0x00000000)
T0F1C 000:620.218 - 0.006ms returns 0
T0F1C 000:620.222 JLINK_WriteReg(R6, 0x00000000)
T0F1C 000:620.227 - 0.006ms returns 0
T0F1C 000:620.231 JLINK_WriteReg(R7, 0x00000000)
T0F1C 000:620.236 - 0.006ms returns 0
T0F1C 000:620.241 JLINK_WriteReg(R8, 0x00000000)
T0F1C 000:620.245 - 0.006ms returns 0
T0F1C 000:620.250 JLINK_WriteReg(R9, 0x100001DC)
T0F1C 000:620.254 - 0.006ms returns 0
T0F1C 000:620.259 JLINK_WriteReg(R10, 0x00000000)
T0F1C 000:620.263 - 0.006ms returns 0
T0F1C 000:620.268 JLINK_WriteReg(R11, 0x00000000)
T0F1C 000:620.272 - 0.006ms returns 0
T0F1C 000:620.277 JLINK_WriteReg(R12, 0x00000000)
T0F1C 000:620.281 - 0.006ms returns 0
T0F1C 000:620.286 JLINK_WriteReg(R13 (SP), 0x10000800)
T0F1C 000:620.291 - 0.006ms returns 0
T0F1C 000:620.296 JLINK_WriteReg(R14, 0x10000001)
T0F1C 000:620.300 - 0.006ms returns 0
T0F1C 000:620.305 JLINK_WriteReg(R15 (PC), 0x10000020)
T0F1C 000:620.309 - 0.006ms returns 0
T0F1C 000:620.314 JLINK_WriteReg(XPSR, 0x01000000)
T0F1C 000:620.318 - 0.006ms returns 0
T0F1C 000:620.323 JLINK_WriteReg(MSP, 0x10000800)
T0F1C 000:620.328 - 0.006ms returns 0
T0F1C 000:620.332 JLINK_WriteReg(PSP, 0x10000800)
T0F1C 000:620.337 - 0.006ms returns 0
T0F1C 000:620.341 JLINK_WriteReg(CFBP, 0x00000000)
T0F1C 000:620.346 - 0.006ms returns 0
T0F1C 000:620.351 JLINK_SetBPEx(Addr = 0x10000000, Type = 0xFFFFFFF2)
T0F1C 000:620.356 - 0.007ms returns 0x00000005
T0F1C 000:620.361 JLINK_Go()
T0F1C 000:620.368   CPU_WriteMem(4 bytes @ 0xE0002000)
T0F1C 000:620.757   CPU_ReadMem(4 bytes @ 0xE0001000)
T0F1C 000:622.980 - 2.625ms
T0F1C 000:622.991 JLINK_IsHalted()
T0F1C 000:623.271 - 0.286ms returns FALSE
T0F1C 000:623.281 JLINK_HasError()
T0F1C 000:624.915 JLINK_IsHalted()
T0F1C 000:625.210 - 0.301ms returns FALSE
T0F1C 000:625.221 JLINK_HasError()
T0F1C 000:626.884 JLINK_IsHalted()
T0F1C 000:627.184 - 0.306ms returns FALSE
T0F1C 000:627.195 JLINK_HasError()
T0F1C 000:628.875 JLINK_IsHalted()
T0F1C 000:629.171 - 0.302ms returns FALSE
T0F1C 000:629.182 JLINK_HasError()
T0F1C 000:630.783 JLINK_IsHalted()
T0F1C 000:631.100 - 0.323ms returns FALSE
T0F1C 000:631.110 JLINK_HasError()
T0F1C 000:632.748 JLINK_IsHalted()
T0F1C 000:633.030 - 0.287ms returns FALSE
T0F1C 000:633.040 JLINK_HasError()
T0F1C 000:634.740 JLINK_IsHalted()
T0F1C 000:635.038 - 0.304ms returns FALSE
T0F1C 000:635.050 JLINK_HasError()
T0F1C 000:636.777 JLINK_IsHalted()
T0F1C 000:637.079 - 0.308ms returns FALSE
T0F1C 000:637.090 JLINK_HasError()
T0F1C 000:638.760 JLINK_IsHalted()
T0F1C 000:639.119 - 0.365ms returns FALSE
T0F1C 000:639.130 JLINK_HasError()
T0F1C 000:640.895 JLINK_IsHalted()
T0F1C 000:641.287 - 0.398ms returns FALSE
T0F1C 000:641.298 JLINK_HasError()
T0F1C 000:643.400 JLINK_IsHalted()
T0F1C 000:643.833 - 0.440ms returns FALSE
T0F1C 000:643.844 JLINK_HasError()
T0F1C 000:645.384 JLINK_IsHalted()
T0F1C 000:645.743 - 0.365ms returns FALSE
T0F1C 000:645.755 JLINK_HasError()
T0F1C 000:647.378 JLINK_IsHalted()
T0F1C 000:647.732 - 0.360ms returns FALSE
T0F1C 000:647.744 JLINK_HasError()
T0F1C 000:649.352 JLINK_IsHalted()
T0F1C 000:651.293 - 1.950ms returns TRUE
T0F1C 000:651.309 JLINK_ReadReg(R15 (PC))
T0F1C 000:651.317 - 0.010ms returns 0x10000000
T0F1C 000:651.324 JLINK_ClrBPEx(BPHandle = 0x00000005)
T0F1C 000:651.330 - 0.008ms returns 0x00
T0F1C 000:651.336 JLINK_ReadReg(R0)
T0F1C 000:651.341 - 0.008ms returns 0x00000000
T0F1C 000:653.249 JLINK_HasError()
T0F1C 000:653.260 JLINK_WriteReg(R0, 0x00000001)
T0F1C 000:653.267 - 0.008ms returns 0
T0F1C 000:653.272 JLINK_WriteReg(R1, 0x00008000)
T0F1C 000:653.277 - 0.006ms returns 0
T0F1C 000:653.282 JLINK_WriteReg(R2, 0x000000FF)
T0F1C 000:653.286 - 0.006ms returns 0
T0F1C 000:653.291 JLINK_WriteReg(R3, 0x00000000)
T0F1C 000:653.296 - 0.006ms returns 0
T0F1C 000:653.301 JLINK_WriteReg(R4, 0x00000000)
T0F1C 000:653.305 - 0.006ms returns 0
T0F1C 000:653.310 JLINK_WriteReg(R5, 0x00000000)
T0F1C 000:653.314 - 0.006ms returns 0
T0F1C 000:653.319 JLINK_WriteReg(R6, 0x00000000)
T0F1C 000:653.324 - 0.006ms returns 0
T0F1C 000:653.328 JLINK_WriteReg(R7, 0x00000000)
T0F1C 000:653.333 - 0.006ms returns 0
T0F1C 000:653.338 JLINK_WriteReg(R8, 0x00000000)
T0F1C 000:653.342 - 0.006ms returns 0
T0F1C 000:653.347 JLINK_WriteReg(R9, 0x100001DC)
T0F1C 000:653.352 - 0.006ms returns 0
T0F1C 000:653.356 JLINK_WriteReg(R10, 0x00000000)
T0F1C 000:653.361 - 0.006ms returns 0
T0F1C 000:653.366 JLINK_WriteReg(R11, 0x00000000)
T0F1C 000:653.370 - 0.006ms returns 0
T0F1C 000:653.375 JLINK_WriteReg(R12, 0x00000000)
T0F1C 000:653.379 - 0.006ms returns 0
T0F1C 000:653.384 JLINK_WriteReg(R13 (SP), 0x10000800)
T0F1C 000:653.389 - 0.007ms returns 0
T0F1C 000:653.394 JLINK_WriteReg(R14, 0x10000001)
T0F1C 000:653.399 - 0.006ms returns 0
T0F1C 000:653.403 JLINK_WriteReg(R15 (PC), 0x100000CC)
T0F1C 000:653.408 - 0.006ms returns 0
T0F1C 000:653.413 JLINK_WriteReg(XPSR, 0x01000000)
T0F1C 000:653.417 - 0.006ms returns 0
T0F1C 000:653.422 JLINK_WriteReg(MSP, 0x10000800)
T0F1C 000:653.427 - 0.006ms returns 0
T0F1C 000:653.432 JLINK_WriteReg(PSP, 0x10000800)
T0F1C 000:653.436 - 0.006ms returns 0
T0F1C 000:653.441 JLINK_WriteReg(CFBP, 0x00000000)
T0F1C 000:653.445 - 0.006ms returns 0
T0F1C 000:653.450 JLINK_SetBPEx(Addr = 0x10000000, Type = 0xFFFFFFF2)
T0F1C 000:653.456 - 0.008ms returns 0x00000006
T0F1C 000:653.461 JLINK_Go()
T0F1C 000:653.469   CPU_WriteMem(4 bytes @ 0xE0002000)
T0F1C 000:653.756   CPU_ReadMem(4 bytes @ 0xE0001000)
T0F1C 000:655.846 - 2.390ms
T0F1C 000:655.892 JLINK_IsHalted()
T0F1C 000:657.878 - 1.992ms returns TRUE
T0F1C 000:657.889 JLINK_ReadReg(R15 (PC))
T0F1C 000:657.894 - 0.007ms returns 0x10000000
T0F1C 000:657.899 JLINK_ClrBPEx(BPHandle = 0x00000006)
T0F1C 000:657.904 - 0.006ms returns 0x00
T0F1C 000:657.909 JLINK_ReadReg(R0)
T0F1C 000:657.913 - 0.006ms returns 0x00000000
T0F1C 000:717.534 JLINK_WriteMem(0x10000000, 0x1E4 Bytes, ...)
T0F1C 000:717.546   Data:  00 BE 0A E0 0D 78 2D 06 68 40 08 24 40 00 00 D3 ...
T0F1C 000:717.563   CPU_WriteMem(484 bytes @ 0x10000000)
T0F1C 000:719.515 - 1.984ms returns 0x1E4
T0F1C 000:719.536 JLINK_HasError()
T0F1C 000:719.542 JLINK_WriteReg(R0, 0x00000000)
T0F1C 000:719.548 - 0.008ms returns 0
T0F1C 000:719.553 JLINK_WriteReg(R1, 0x00B71B00)
T0F1C 000:719.558 - 0.006ms returns 0
T0F1C 000:719.563 JLINK_WriteReg(R2, 0x00000002)
T0F1C 000:719.567 - 0.006ms returns 0
T0F1C 000:719.572 JLINK_WriteReg(R3, 0x00000000)
T0F1C 000:719.576 - 0.006ms returns 0
T0F1C 000:719.581 JLINK_WriteReg(R4, 0x00000000)
T0F1C 000:719.585 - 0.006ms returns 0
T0F1C 000:719.590 JLINK_WriteReg(R5, 0x00000000)
T0F1C 000:719.595 - 0.006ms returns 0
T0F1C 000:719.599 JLINK_WriteReg(R6, 0x00000000)
T0F1C 000:719.604 - 0.006ms returns 0
T0F1C 000:719.608 JLINK_WriteReg(R7, 0x00000000)
T0F1C 000:719.613 - 0.006ms returns 0
T0F1C 000:719.618 JLINK_WriteReg(R8, 0x00000000)
T0F1C 000:719.622 - 0.006ms returns 0
T0F1C 000:719.627 JLINK_WriteReg(R9, 0x100001DC)
T0F1C 000:719.631 - 0.006ms returns 0
T0F1C 000:719.636 JLINK_WriteReg(R10, 0x00000000)
T0F1C 000:719.640 - 0.006ms returns 0
T0F1C 000:719.645 JLINK_WriteReg(R11, 0x00000000)
T0F1C 000:719.649 - 0.006ms returns 0
T0F1C 000:719.654 JLINK_WriteReg(R12, 0x00000000)
T0F1C 000:719.658 - 0.006ms returns 0
T0F1C 000:719.663 JLINK_WriteReg(R13 (SP), 0x10000800)
T0F1C 000:719.668 - 0.007ms returns 0
T0F1C 000:719.673 JLINK_WriteReg(R14, 0x10000001)
T0F1C 000:719.677 - 0.006ms returns 0
T0F1C 000:719.682 JLINK_WriteReg(R15 (PC), 0x10000044)
T0F1C 000:719.687 - 0.006ms returns 0
T0F1C 000:719.691 JLINK_WriteReg(XPSR, 0x01000000)
T0F1C 000:719.696 - 0.006ms returns 0
T0F1C 000:719.701 JLINK_WriteReg(MSP, 0x10000800)
T0F1C 000:719.705 - 0.006ms returns 0
T0F1C 000:719.710 JLINK_WriteReg(PSP, 0x10000800)
T0F1C 000:719.714 - 0.006ms returns 0
T0F1C 000:719.719 JLINK_WriteReg(CFBP, 0x00000000)
T0F1C 000:719.723 - 0.006ms returns 0
T0F1C 000:719.728 JLINK_SetBPEx(Addr = 0x10000000, Type = 0xFFFFFFF2)
T0F1C 000:719.734 - 0.007ms returns 0x00000007
T0F1C 000:719.738 JLINK_Go()
T0F1C 000:719.745   CPU_WriteMem(4 bytes @ 0xE0002000)
T0F1C 000:720.035   CPU_ReadMem(4 bytes @ 0xE0001000)
T0F1C 000:722.163 - 2.429ms
T0F1C 000:722.171 JLINK_IsHalted()
T0F1C 000:724.141 - 1.995ms returns TRUE
T0F1C 000:724.170 JLINK_ReadReg(R15 (PC))
T0F1C 000:724.175 - 0.007ms returns 0x10000000
T0F1C 000:724.180 JLINK_ClrBPEx(BPHandle = 0x00000007)
T0F1C 000:724.185 - 0.006ms returns 0x00
T0F1C 000:724.190 JLINK_ReadReg(R0)
T0F1C 000:724.194 - 0.006ms returns 0x00000000
T0F1C 000:724.343 JLINK_WriteMem(0x10000204, 0x1FC Bytes, ...)
T0F1C 000:724.350   Data:  B8 66 00 10 65 52 02 00 6D 52 02 00 6F 52 02 00 ...
T0F1C 000:724.364   CPU_WriteMem(508 bytes @ 0x10000204)
T0F1C 000:726.338 - 1.999ms returns 0x1FC
T0F1C 000:726.346 JLINK_WriteMem(0x10000400, 0x204 Bytes, ...)
T0F1C 000:726.353   Data:  6D 08 4F F4 7A 78 B8 FB F5 F0 00 F1 13 03 B3 FB ...
T0F1C 000:726.362   CPU_WriteMem(516 bytes @ 0x10000400)
T0F1C 000:728.449 - 2.108ms returns 0x204
T0F1C 000:728.460 JLINK_HasError()
T0F1C 000:728.466 JLINK_WriteReg(R0, 0x00018000)
T0F1C 000:728.471 - 0.007ms returns 0
T0F1C 000:728.476 JLINK_WriteReg(R1, 0x00000400)
T0F1C 000:728.481 - 0.006ms returns 0
T0F1C 000:728.486 JLINK_WriteReg(R2, 0x10000204)
T0F1C 000:728.491 - 0.006ms returns 0
T0F1C 000:728.495 JLINK_WriteReg(R3, 0x00000000)
T0F1C 000:728.500 - 0.006ms returns 0
T0F1C 000:728.505 JLINK_WriteReg(R4, 0x00000000)
T0F1C 000:728.509 - 0.006ms returns 0
T0F1C 000:728.514 JLINK_WriteReg(R5, 0x00000000)
T0F1C 000:728.522 - 0.011ms returns 0
T0F1C 000:728.529 JLINK_WriteReg(R6, 0x00000000)
T0F1C 000:728.533 - 0.006ms returns 0
T0F1C 000:728.538 JLINK_WriteReg(R7, 0x00000000)
T0F1C 000:728.543 - 0.006ms returns 0
T0F1C 000:728.547 JLINK_WriteReg(R8, 0x00000000)
T0F1C 000:728.552 - 0.006ms returns 0
T0F1C 000:728.557 JLINK_WriteReg(R9, 0x100001DC)
T0F1C 000:728.561 - 0.006ms returns 0
T0F1C 000:728.583 JLINK_WriteReg(R10, 0x00000000)
T0F1C 000:728.588 - 0.006ms returns 0
T0F1C 000:728.593 JLINK_WriteReg(R11, 0x00000000)
T0F1C 000:728.597 - 0.006ms returns 0
T0F1C 000:728.617 JLINK_WriteReg(R12, 0x00000000)
T0F1C 000:728.621 - 0.006ms returns 0
T0F1C 000:728.626 JLINK_WriteReg(R13 (SP), 0x10000800)
T0F1C 000:728.630 - 0.006ms returns 0
T0F1C 000:728.635 JLINK_WriteReg(R14, 0x10000001)
T0F1C 000:728.640 - 0.006ms returns 0
T0F1C 000:728.644 JLINK_WriteReg(R15 (PC), 0x10000156)
T0F1C 000:728.649 - 0.006ms returns 0
T0F1C 000:728.654 JLINK_WriteReg(XPSR, 0x01000000)
T0F1C 000:728.658 - 0.006ms returns 0
T0F1C 000:728.663 JLINK_WriteReg(MSP, 0x10000800)
T0F1C 000:728.667 - 0.006ms returns 0
T0F1C 000:728.672 JLINK_WriteReg(PSP, 0x10000800)
T0F1C 000:728.676 - 0.006ms returns 0
T0F1C 000:728.681 JLINK_WriteReg(CFBP, 0x00000000)
T0F1C 000:728.685 - 0.006ms returns 0
T0F1C 000:728.690 JLINK_SetBPEx(Addr = 0x10000000, Type = 0xFFFFFFF2)
T0F1C 000:728.696 - 0.007ms returns 0x00000008
T0F1C 000:728.700 JLINK_Go()
T0F1C 000:728.707   CPU_WriteMem(4 bytes @ 0xE0002000)
T0F1C 000:728.973   CPU_ReadMem(4 bytes @ 0xE0001000)
T0F1C 000:731.226 - 2.529ms
T0F1C 000:731.233 JLINK_IsHalted()
T0F1C 000:731.499 - 0.268ms returns FALSE
T0F1C 000:731.506 JLINK_HasError()
T0F1C 000:738.484 JLINK_IsHalted()
T0F1C 000:740.475 - 1.999ms returns TRUE
T0F1C 000:740.488 JLINK_ReadReg(R15 (PC))
T0F1C 000:740.494 - 0.008ms returns 0x10000000
T0F1C 000:740.500 JLINK_ClrBPEx(BPHandle = 0x00000008)
T0F1C 000:740.505 - 0.007ms returns 0x00
T0F1C 000:740.510 JLINK_ReadReg(R0)
T0F1C 000:740.514 - 0.006ms returns 0x00000000
T0F1C 000:741.265 JLINK_WriteMem(0x10000204, 0x1FC Bytes, ...)
T0F1C 000:741.275   Data:  22 46 62 A1 01 A8 12 F0 45 FD 6F F0 7F 43 01 AA ...
T0F1C 000:741.288   CPU_WriteMem(508 bytes @ 0x10000204)
T0F1C 000:743.345 - 2.086ms returns 0x1FC
T0F1C 000:743.356 JLINK_WriteMem(0x10000400, 0x204 Bytes, ...)
T0F1C 000:743.361   Data:  04 C0 C3 60 B2 FB F4 F2 52 1E 4A 43 82 61 05 60 ...
T0F1C 000:743.371   CPU_WriteMem(516 bytes @ 0x10000400)
T0F1C 000:745.518 - 2.168ms returns 0x204
T0F1C 000:745.530 JLINK_HasError()
T0F1C 000:745.535 JLINK_WriteReg(R0, 0x00018400)
T0F1C 000:745.542 - 0.008ms returns 0
T0F1C 000:745.547 JLINK_WriteReg(R1, 0x00000400)
T0F1C 000:745.551 - 0.006ms returns 0
T0F1C 000:745.556 JLINK_WriteReg(R2, 0x10000204)
T0F1C 000:745.560 - 0.006ms returns 0
T0F1C 000:745.565 JLINK_WriteReg(R3, 0x00000000)
T0F1C 000:745.569 - 0.006ms returns 0
T0F1C 000:745.574 JLINK_WriteReg(R4, 0x00000000)
T0F1C 000:745.578 - 0.006ms returns 0
T0F1C 000:745.583 JLINK_WriteReg(R5, 0x00000000)
T0F1C 000:745.587 - 0.006ms returns 0
T0F1C 000:745.592 JLINK_WriteReg(R6, 0x00000000)
T0F1C 000:745.596 - 0.006ms returns 0
T0F1C 000:745.601 JLINK_WriteReg(R7, 0x00000000)
T0F1C 000:745.605 - 0.006ms returns 0
T0F1C 000:745.610 JLINK_WriteReg(R8, 0x00000000)
T0F1C 000:745.615 - 0.006ms returns 0
T0F1C 000:745.619 JLINK_WriteReg(R9, 0x100001DC)
T0F1C 000:745.624 - 0.006ms returns 0
T0F1C 000:745.628 JLINK_WriteReg(R10, 0x00000000)
T0F1C 000:745.633 - 0.006ms returns 0
T0F1C 000:745.637 JLINK_WriteReg(R11, 0x00000000)
T0F1C 000:745.642 - 0.006ms returns 0
T0F1C 000:745.647 JLINK_WriteReg(R12, 0x00000000)
T0F1C 000:745.651 - 0.006ms returns 0
T0F1C 000:745.656 JLINK_WriteReg(R13 (SP), 0x10000800)
T0F1C 000:745.660 - 0.006ms returns 0
T0F1C 000:745.665 JLINK_WriteReg(R14, 0x10000001)
T0F1C 000:745.669 - 0.006ms returns 0
T0F1C 000:745.674 JLINK_WriteReg(R15 (PC), 0x10000156)
T0F1C 000:745.679 - 0.006ms returns 0
T0F1C 000:745.683 JLINK_WriteReg(XPSR, 0x01000000)
T0F1C 000:745.688 - 0.009ms returns 0
T0F1C 000:745.697 JLINK_WriteReg(MSP, 0x10000800)
T0F1C 000:745.701 - 0.006ms returns 0
T0F1C 000:745.706 JLINK_WriteReg(PSP, 0x10000800)
T0F1C 000:745.710 - 0.006ms returns 0
T0F1C 000:745.715 JLINK_WriteReg(CFBP, 0x00000000)
T0F1C 000:745.719 - 0.006ms returns 0
T0F1C 000:745.724 JLINK_SetBPEx(Addr = 0x10000000, Type = 0xFFFFFFF2)
T0F1C 000:745.730 - 0.007ms returns 0x00000009
T0F1C 000:745.735 JLINK_Go()
T0F1C 000:745.741   CPU_WriteMem(4 bytes @ 0xE0002000)
T0F1C 000:746.022   CPU_ReadMem(4 bytes @ 0xE0001000)
T0F1C 000:748.113 - 2.384ms
T0F1C 000:748.123 JLINK_IsHalted()
T0F1C 000:748.407 - 0.289ms returns FALSE
T0F1C 000:748.418 JLINK_HasError()
T0F1C 000:750.385 JLINK_IsHalted()
T0F1C 000:750.716 - 0.336ms returns FALSE
T0F1C 000:750.726 JLINK_HasError()
T0F1C 000:752.497 JLINK_IsHalted()
T0F1C 000:752.766 - 0.275ms returns FALSE
T0F1C 000:752.776 JLINK_HasError()
T0F1C 000:754.388 JLINK_IsHalted()
T0F1C 000:756.391 - 2.025ms returns TRUE
T0F1C 000:756.420 JLINK_ReadReg(R15 (PC))
T0F1C 000:756.444 - 0.026ms returns 0x10000000
T0F1C 000:756.468 JLINK_ClrBPEx(BPHandle = 0x00000009)
T0F1C 000:756.473 - 0.007ms returns 0x00
T0F1C 000:756.478 JLINK_ReadReg(R0)
T0F1C 000:756.483 - 0.006ms returns 0x00000000
T0F1C 000:757.529 JLINK_WriteMem(0x10000204, 0x1FC Bytes, ...)
T0F1C 000:757.539   Data:  00 00 00 10 00 C0 0F 40 08 B5 FD 49 42 F2 10 72 ...
T0F1C 000:757.551   CPU_WriteMem(508 bytes @ 0x10000204)
T0F1C 000:759.505 - 1.981ms returns 0x1FC
T0F1C 000:759.514 JLINK_WriteMem(0x10000400, 0x204 Bytes, ...)
T0F1C 000:759.519   Data:  AC EB 0C 14 E5 01 A0 F2 DF 14 A5 EB 84 04 7F 4D ...
T0F1C 000:759.532   CPU_WriteMem(516 bytes @ 0x10000400)
T0F1C 000:761.574 - 2.063ms returns 0x204
T0F1C 000:761.582 JLINK_HasError()
T0F1C 000:761.587 JLINK_WriteReg(R0, 0x00018800)
T0F1C 000:761.593 - 0.007ms returns 0
T0F1C 000:761.598 JLINK_WriteReg(R1, 0x00000400)
T0F1C 000:761.602 - 0.006ms returns 0
T0F1C 000:761.607 JLINK_WriteReg(R2, 0x10000204)
T0F1C 000:761.611 - 0.006ms returns 0
T0F1C 000:761.616 JLINK_WriteReg(R3, 0x00000000)
T0F1C 000:761.621 - 0.006ms returns 0
T0F1C 000:761.625 JLINK_WriteReg(R4, 0x00000000)
T0F1C 000:761.630 - 0.006ms returns 0
T0F1C 000:761.634 JLINK_WriteReg(R5, 0x00000000)
T0F1C 000:761.639 - 0.006ms returns 0
T0F1C 000:761.643 JLINK_WriteReg(R6, 0x00000000)
T0F1C 000:761.648 - 0.006ms returns 0
T0F1C 000:761.652 JLINK_WriteReg(R7, 0x00000000)
T0F1C 000:761.657 - 0.006ms returns 0
T0F1C 000:761.661 JLINK_WriteReg(R8, 0x00000000)
T0F1C 000:761.666 - 0.006ms returns 0
T0F1C 000:761.670 JLINK_WriteReg(R9, 0x100001DC)
T0F1C 000:761.675 - 0.006ms returns 0
T0F1C 000:761.679 JLINK_WriteReg(R10, 0x00000000)
T0F1C 000:761.684 - 0.006ms returns 0
T0F1C 000:761.688 JLINK_WriteReg(R11, 0x00000000)
T0F1C 000:761.693 - 0.006ms returns 0
T0F1C 000:761.697 JLINK_WriteReg(R12, 0x00000000)
T0F1C 000:761.702 - 0.006ms returns 0
T0F1C 000:761.706 JLINK_WriteReg(R13 (SP), 0x10000800)
T0F1C 000:761.712 - 0.007ms returns 0
T0F1C 000:761.716 JLINK_WriteReg(R14, 0x10000001)
T0F1C 000:761.721 - 0.006ms returns 0
T0F1C 000:761.725 JLINK_WriteReg(R15 (PC), 0x10000156)
T0F1C 000:761.730 - 0.006ms returns 0
T0F1C 000:761.734 JLINK_WriteReg(XPSR, 0x01000000)
T0F1C 000:761.739 - 0.006ms returns 0
T0F1C 000:761.744 JLINK_WriteReg(MSP, 0x10000800)
T0F1C 000:761.748 - 0.006ms returns 0
T0F1C 000:761.753 JLINK_WriteReg(PSP, 0x10000800)
T0F1C 000:761.757 - 0.006ms returns 0
T0F1C 000:761.762 JLINK_WriteReg(CFBP, 0x00000000)
T0F1C 000:761.766 - 0.006ms returns 0
T0F1C 000:761.771 JLINK_SetBPEx(Addr = 0x10000000, Type = 0xFFFFFFF2)
T0F1C 000:761.776 - 0.007ms returns 0x0000000A
T0F1C 000:761.781 JLINK_Go()
T0F1C 000:761.787   CPU_WriteMem(4 bytes @ 0xE0002000)
T0F1C 000:762.078   CPU_ReadMem(4 bytes @ 0xE0001000)
T0F1C 000:764.129 - 2.354ms
T0F1C 000:764.139 JLINK_IsHalted()
T0F1C 000:764.411 - 0.277ms returns FALSE
T0F1C 000:764.421 JLINK_HasError()
T0F1C 000:765.937 JLINK_IsHalted()
T0F1C 000:766.184 - 0.253ms returns FALSE
T0F1C 000:766.197 JLINK_HasError()
T0F1C 000:767.911 JLINK_IsHalted()
T0F1C 000:768.179 - 0.274ms returns FALSE
T0F1C 000:768.190 JLINK_HasError()
T0F1C 000:769.894 JLINK_IsHalted()
T0F1C 000:771.776 - 1.910ms returns TRUE
T0F1C 000:771.809 JLINK_ReadReg(R15 (PC))
T0F1C 000:771.814 - 0.008ms returns 0x10000000
T0F1C 000:771.836 JLINK_ClrBPEx(BPHandle = 0x0000000A)
T0F1C 000:771.841 - 0.006ms returns 0x00
T0F1C 000:771.846 JLINK_ReadReg(R0)
T0F1C 000:771.850 - 0.006ms returns 0x00000000
T0F1C 000:772.146 JLINK_WriteMem(0x10000204, 0x1FC Bytes, ...)
T0F1C 000:772.154   Data:  00 80 08 20 00 82 08 20 00 00 01 A0 B8 C0 02 40 ...
T0F1C 000:772.165   CPU_WriteMem(508 bytes @ 0x10000204)
T0F1C 000:774.121 - 1.980ms returns 0x1FC
T0F1C 000:774.131 JLINK_WriteMem(0x10000400, 0x204 Bytes, ...)
T0F1C 000:774.136   Data:  51 70 DF F8 98 93 00 90 25 E0 0A 98 C6 5D 00 25 ...
T0F1C 000:774.146   CPU_WriteMem(516 bytes @ 0x10000400)
T0F1C 000:776.109 - 1.984ms returns 0x204
T0F1C 000:776.121 JLINK_HasError()
T0F1C 000:776.126 JLINK_WriteReg(R0, 0x00018C00)
T0F1C 000:776.133 - 0.008ms returns 0
T0F1C 000:776.138 JLINK_WriteReg(R1, 0x00000400)
T0F1C 000:776.142 - 0.006ms returns 0
T0F1C 000:776.147 JLINK_WriteReg(R2, 0x10000204)
T0F1C 000:776.152 - 0.009ms returns 0
T0F1C 000:776.159 JLINK_WriteReg(R3, 0x00000000)
T0F1C 000:776.164 - 0.006ms returns 0
T0F1C 000:776.169 JLINK_WriteReg(R4, 0x00000000)
T0F1C 000:776.173 - 0.006ms returns 0
T0F1C 000:776.178 JLINK_WriteReg(R5, 0x00000000)
T0F1C 000:776.182 - 0.006ms returns 0
T0F1C 000:776.187 JLINK_WriteReg(R6, 0x00000000)
T0F1C 000:776.191 - 0.006ms returns 0
T0F1C 000:776.196 JLINK_WriteReg(R7, 0x00000000)
T0F1C 000:776.200 - 0.006ms returns 0
T0F1C 000:776.205 JLINK_WriteReg(R8, 0x00000000)
T0F1C 000:776.209 - 0.006ms returns 0
T0F1C 000:776.214 JLINK_WriteReg(R9, 0x100001DC)
T0F1C 000:776.218 - 0.006ms returns 0
T0F1C 000:776.223 JLINK_WriteReg(R10, 0x00000000)
T0F1C 000:776.227 - 0.006ms returns 0
T0F1C 000:776.232 JLINK_WriteReg(R11, 0x00000000)
T0F1C 000:776.236 - 0.006ms returns 0
T0F1C 000:776.241 JLINK_WriteReg(R12, 0x00000000)
T0F1C 000:776.245 - 0.006ms returns 0
T0F1C 000:776.250 JLINK_WriteReg(R13 (SP), 0x10000800)
T0F1C 000:776.255 - 0.006ms returns 0
T0F1C 000:776.260 JLINK_WriteReg(R14, 0x10000001)
T0F1C 000:776.264 - 0.006ms returns 0
T0F1C 000:776.269 JLINK_WriteReg(R15 (PC), 0x10000156)
T0F1C 000:776.273 - 0.006ms returns 0
T0F1C 000:776.278 JLINK_WriteReg(XPSR, 0x01000000)
T0F1C 000:776.282 - 0.006ms returns 0
T0F1C 000:776.287 JLINK_WriteReg(MSP, 0x10000800)
T0F1C 000:776.291 - 0.006ms returns 0
T0F1C 000:776.296 JLINK_WriteReg(PSP, 0x10000800)
T0F1C 000:776.300 - 0.006ms returns 0
T0F1C 000:776.305 JLINK_WriteReg(CFBP, 0x00000000)
T0F1C 000:776.309 - 0.006ms returns 0
T0F1C 000:776.314 JLINK_SetBPEx(Addr = 0x10000000, Type = 0xFFFFFFF2)
T0F1C 000:776.319 - 0.007ms returns 0x0000000B
T0F1C 000:776.324 JLINK_Go()
T0F1C 000:776.331   CPU_WriteMem(4 bytes @ 0xE0002000)
T0F1C 000:776.612   CPU_ReadMem(4 bytes @ 0xE0001000)
T0F1C 000:778.718 - 2.400ms
T0F1C 000:778.729 JLINK_IsHalted()
T0F1C 000:778.983 - 0.260ms returns FALSE
T0F1C 000:778.993 JLINK_HasError()
T0F1C 000:781.924 JLINK_IsHalted()
T0F1C 000:782.189 - 0.271ms returns FALSE
T0F1C 000:782.200 JLINK_HasError()
T0F1C 000:783.858 JLINK_IsHalted()
T0F1C 000:785.905 - 2.053ms returns TRUE
T0F1C 000:785.916 JLINK_ReadReg(R15 (PC))
T0F1C 000:785.921 - 0.007ms returns 0x10000000
T0F1C 000:785.926 JLINK_ClrBPEx(BPHandle = 0x0000000B)
T0F1C 000:785.931 - 0.007ms returns 0x00
T0F1C 000:785.936 JLINK_ReadReg(R0)
T0F1C 000:785.941 - 0.006ms returns 0x00000000
T0F1C 000:786.195 JLINK_WriteMem(0x10000204, 0x1FC Bytes, ...)
T0F1C 000:786.202   Data:  1F FA 88 F8 F4 E7 10 B5 04 46 08 46 11 46 22 46 ...
T0F1C 000:786.212   CPU_WriteMem(508 bytes @ 0x10000204)
T0F1C 000:788.136 - 1.971ms returns 0x1FC
T0F1C 000:788.171 JLINK_WriteMem(0x10000400, 0x204 Bytes, ...)
T0F1C 000:788.176   Data:  00 24 28 46 FF F7 DA FD 80 B2 4B 46 22 46 31 46 ...
T0F1C 000:788.186   CPU_WriteMem(516 bytes @ 0x10000400)
T0F1C 000:790.134 - 1.970ms returns 0x204
T0F1C 000:790.146 JLINK_HasError()
T0F1C 000:790.152 JLINK_WriteReg(R0, 0x00019000)
T0F1C 000:790.159 - 0.008ms returns 0
T0F1C 000:790.164 JLINK_WriteReg(R1, 0x00000400)
T0F1C 000:790.168 - 0.006ms returns 0
T0F1C 000:790.173 JLINK_WriteReg(R2, 0x10000204)
T0F1C 000:790.178 - 0.006ms returns 0
T0F1C 000:790.183 JLINK_WriteReg(R3, 0x00000000)
T0F1C 000:790.187 - 0.006ms returns 0
T0F1C 000:790.192 JLINK_WriteReg(R4, 0x00000000)
T0F1C 000:790.196 - 0.006ms returns 0
T0F1C 000:790.201 JLINK_WriteReg(R5, 0x00000000)
T0F1C 000:790.206 - 0.006ms returns 0
T0F1C 000:790.211 JLINK_WriteReg(R6, 0x00000000)
T0F1C 000:790.215 - 0.006ms returns 0
T0F1C 000:790.220 JLINK_WriteReg(R7, 0x00000000)
T0F1C 000:790.224 - 0.006ms returns 0
T0F1C 000:790.229 JLINK_WriteReg(R8, 0x00000000)
T0F1C 000:790.234 - 0.006ms returns 0
T0F1C 000:790.238 JLINK_WriteReg(R9, 0x100001DC)
T0F1C 000:790.243 - 0.006ms returns 0
T0F1C 000:790.248 JLINK_WriteReg(R10, 0x00000000)
T0F1C 000:790.252 - 0.006ms returns 0
T0F1C 000:790.257 JLINK_WriteReg(R11, 0x00000000)
T0F1C 000:790.261 - 0.006ms returns 0
T0F1C 000:790.266 JLINK_WriteReg(R12, 0x00000000)
T0F1C 000:790.271 - 0.006ms returns 0
T0F1C 000:790.276 JLINK_WriteReg(R13 (SP), 0x10000800)
T0F1C 000:790.281 - 0.007ms returns 0
T0F1C 000:790.286 JLINK_WriteReg(R14, 0x10000001)
T0F1C 000:790.290 - 0.006ms returns 0
T0F1C 000:790.295 JLINK_WriteReg(R15 (PC), 0x10000156)
T0F1C 000:790.299 - 0.006ms returns 0
T0F1C 000:790.304 JLINK_WriteReg(XPSR, 0x01000000)
T0F1C 000:790.309 - 0.006ms returns 0
T0F1C 000:790.314 JLINK_WriteReg(MSP, 0x10000800)
T0F1C 000:790.318 - 0.006ms returns 0
T0F1C 000:790.323 JLINK_WriteReg(PSP, 0x10000800)
T0F1C 000:790.327 - 0.006ms returns 0
T0F1C 000:790.332 JLINK_WriteReg(CFBP, 0x00000000)
T0F1C 000:790.337 - 0.006ms returns 0
